# UVM_INFO verilog_src/questa_uvm_pkg-1.2/src/questa_uvm_pkg.sv(277) @ 0: reporter [Questa UVM] QUESTA_UVM-1.2.3
# UVM_INFO verilog_src/questa_uvm_pkg-1.2/src/questa_uvm_pkg.sv(278) @ 0: reporter [Questa UVM]  questa_uvm::init(+struct)
# UVM_INFO @ 0: reporter [RNTST] Running test axi_full_write_read_test...
# UVM_INFO @ 0: reporter [UVMTOP] UVM testbench topology:
# ------------------------------------------------------------------
# Name                       Type                        Size  Value
# ------------------------------------------------------------------
# uvm_test_top               axi_full_write_read_test    -     @471 
#   axi_env_0                axi_env                     -     @478 
#     axi_agent_0            axi_agent                   -     @489 
#       axi_driver_0         axi_driver                  -     @511 
#         rsp_port           uvm_analysis_port           -     @526 
#         seq_item_port      uvm_seq_item_pull_port      -     @518 
#       axi_monitor_0        axi_monitor                 -     @504 
#         dut_in_tx_port     uvm_analysis_port           -     @644 
#         dut_out_tx_port    uvm_analysis_port           -     @652 
#       axi_sequencer_0      uvm_sequencer               -     @534 
#         rsp_export         uvm_analysis_export         -     @541 
#         seq_item_export    uvm_seq_item_pull_imp       -     @635 
#         arbitration_queue  array                       0     -    
#         lock_queue         array                       0     -    
#         num_last_reqs      integral                    32    'd1  
#         num_last_rsps      integral                    32    'd1  
#     axi_scoreboard_0       axi_scoreboard              -     @496 
#       in_fifo              uvm_tlm_analysis_fifo #(T)  -     @666 
#         analysis_export    uvm_analysis_imp            -     @705 
#         get_ap             uvm_analysis_port           -     @697 
#         get_peek_export    uvm_get_peek_imp            -     @681 
#         put_ap             uvm_analysis_port           -     @689 
#         put_export         uvm_put_imp                 -     @673 
#       in_imp               uvm_analysis_imp_in         -     @760 
#       out_fifo             uvm_tlm_analysis_fifo #(T)  -     @713 
#         analysis_export    uvm_analysis_imp            -     @752 
#         get_ap             uvm_analysis_port           -     @744 
#         get_peek_export    uvm_get_peek_imp            -     @728 
#         put_ap             uvm_analysis_port           -     @736 
#         put_export         uvm_put_imp                 -     @720 
#       out_imp              uvm_analysis_imp_out        -     @768 
# ------------------------------------------------------------------
# 
# UVM_INFO verilog_src/questa_uvm_pkg-1.2/src/questa_uvm_pkg.sv(339) @ 0: reporter [Questa UVM] End Of Elaboration
# UVM_INFO verilog_src/uvm-1.1d/src/seq/uvm_sequencer_base.svh(1384) @ 0: uvm_test_top.axi_env_0.axi_agent_0.axi_sequencer_0 [PHASESEQ] No default phase sequence for phase 'run'
# UVM_INFO /home/users/i77031/Work/AXI_full/uvm//axi_monitor.sv(36) @ 0: uvm_test_top.axi_env_0.axi_agent_0.axi_monitor_0 [INPUT MON] AXI_REQUEST: req=0xx | AXI_RESPONSE: resp=0xx | mon_w_valid_o = 0xx | mon_w_data_o = 0xx | mon_w_addr_o = 0xx | mon_r_valid_o = 0xx | mon_r_data_o = 0xx | mon_r_addr_o = 0xx | done_read = 0xx
# UVM_INFO /home/users/i77031/Work/AXI_full/uvm//axi_monitor.sv(48) @ 0: uvm_test_top.axi_env_0.axi_agent_0.axi_monitor_0 [OUTPUT MON] AXI_REQUEST: req=0xx | AXI_RESPONSE: resp=0x0 | mon_w_valid_o = 0x0 | mon_w_data_o = 0xx | mon_w_addr_o = 0xx | mon_r_valid_o = 0x0 | mon_r_data_o = 0xx | mon_r_addr_o = 0xx | done_read = 0x0
# UVM_INFO verilog_src/uvm-1.1d/src/seq/uvm_sequencer_base.svh(1384) @ 0: uvm_test_top.axi_env_0.axi_agent_0.axi_sequencer_0 [PHASESEQ] No default phase sequence for phase 'pre_reset'
# UVM_INFO /home/users/i77031/Work/AXI_full/uvm//axi_monitor.sv(48) @ 0: uvm_test_top.axi_env_0.axi_agent_0.axi_monitor_0 [OUTPUT MON] AXI_REQUEST: req=0xx | AXI_RESPONSE: resp=0x0 | mon_w_valid_o = 0x0 | mon_w_data_o = 0xx | mon_w_addr_o = 0xx | mon_r_valid_o = 0x0 | mon_r_data_o = 0xx | mon_r_addr_o = 0xx | done_read = 0x0
# UVM_INFO /home/users/i77031/Work/AXI_full/uvm//axi_monitor.sv(36) @ 0: uvm_test_top.axi_env_0.axi_agent_0.axi_monitor_0 [INPUT MON] AXI_REQUEST: req=0x0 | AXI_RESPONSE: resp=0xx | mon_w_valid_o = 0xx | mon_w_data_o = 0xx | mon_w_addr_o = 0xx | mon_r_valid_o = 0xx | mon_r_data_o = 0xx | mon_r_addr_o = 0xx | done_read = 0xx
# UVM_INFO verilog_src/uvm-1.1d/src/seq/uvm_sequencer_base.svh(1384) @ 0: uvm_test_top.axi_env_0.axi_agent_0.axi_sequencer_0 [PHASESEQ] No default phase sequence for phase 'reset'
# UVM_INFO verilog_src/uvm-1.1d/src/seq/uvm_sequencer_base.svh(1384) @ 0: uvm_test_top.axi_env_0.axi_agent_0.axi_sequencer_0 [PHASESEQ] No default phase sequence for phase 'post_reset'
# UVM_INFO verilog_src/uvm-1.1d/src/seq/uvm_sequencer_base.svh(1384) @ 0: uvm_test_top.axi_env_0.axi_agent_0.axi_sequencer_0 [PHASESEQ] No default phase sequence for phase 'pre_configure'
# UVM_INFO verilog_src/uvm-1.1d/src/seq/uvm_sequencer_base.svh(1384) @ 0: uvm_test_top.axi_env_0.axi_agent_0.axi_sequencer_0 [PHASESEQ] No default phase sequence for phase 'configure'
# UVM_INFO verilog_src/uvm-1.1d/src/seq/uvm_sequencer_base.svh(1384) @ 0: uvm_test_top.axi_env_0.axi_agent_0.axi_sequencer_0 [PHASESEQ] No default phase sequence for phase 'post_configure'
# UVM_INFO verilog_src/uvm-1.1d/src/seq/uvm_sequencer_base.svh(1384) @ 0: uvm_test_top.axi_env_0.axi_agent_0.axi_sequencer_0 [PHASESEQ] No default phase sequence for phase 'pre_main'
# UVM_INFO verilog_src/uvm-1.1d/src/seq/uvm_sequencer_base.svh(1384) @ 0: uvm_test_top.axi_env_0.axi_agent_0.axi_sequencer_0 [PHASESEQ] No default phase sequence for phase 'main'
# UVM_INFO verilog_src/uvm-1.1d/src/seq/uvm_sequencer_base.svh(1384) @ 0: uvm_test_top.axi_env_0.axi_agent_0.axi_sequencer_0 [PHASESEQ] No default phase sequence for phase 'post_main'
# UVM_INFO verilog_src/uvm-1.1d/src/seq/uvm_sequencer_base.svh(1384) @ 0: uvm_test_top.axi_env_0.axi_agent_0.axi_sequencer_0 [PHASESEQ] No default phase sequence for phase 'pre_shutdown'
# UVM_INFO verilog_src/uvm-1.1d/src/seq/uvm_sequencer_base.svh(1384) @ 0: uvm_test_top.axi_env_0.axi_agent_0.axi_sequencer_0 [PHASESEQ] No default phase sequence for phase 'shutdown'
# UVM_INFO verilog_src/uvm-1.1d/src/seq/uvm_sequencer_base.svh(1384) @ 0: uvm_test_top.axi_env_0.axi_agent_0.axi_sequencer_0 [PHASESEQ] No default phase sequence for phase 'post_shutdown'
# UVM_INFO /home/users/i77031/Work/AXI_full/uvm//axi_monitor.sv(36) @ 15000: uvm_test_top.axi_env_0.axi_agent_0.axi_monitor_0 [INPUT MON] AXI_REQUEST: req=0x0 | AXI_RESPONSE: resp=0xx | mon_w_valid_o = 0xx | mon_w_data_o = 0xx | mon_w_addr_o = 0xx | mon_r_valid_o = 0xx | mon_r_data_o = 0xx | mon_r_addr_o = 0xx | done_read = 0xx
# UVM_INFO /home/users/i77031/Work/AXI_full/uvm//axi_monitor.sv(48) @ 15000: uvm_test_top.axi_env_0.axi_agent_0.axi_monitor_0 [OUTPUT MON] AXI_REQUEST: req=0xx | AXI_RESPONSE: resp=0x0 | mon_w_valid_o = 0x0 | mon_w_data_o = 0xx | mon_w_addr_o = 0xx | mon_r_valid_o = 0x0 | mon_r_data_o = 0xx | mon_r_addr_o = 0xx | done_read = 0x0
# UVM_INFO /home/users/i77031/Work/AXI_full/uvm//axi_transaction.sv(144) @ 15000: uvm_test_top.axi_env_0.axi_agent_0.axi_sequencer_0@@axi_wr_rd_seq [uvm_test_top.axi_env_0.axi_agent_0.axi_sequencer_0.axi_wr_rd_seq] Generating Single Write sequence
# UVM_INFO /home/users/i77031/Work/AXI_full/uvm//axi_driver.sv(72) @ 20000: uvm_test_top.axi_env_0.axi_agent_0.axi_driver_0 [uvm_test_top.axi_env_0.axi_agent_0.axi_driver_0] Got AW Ready
# UVM_INFO /home/users/i77031/Work/AXI_full/uvm//axi_monitor.sv(48) @ 20000: uvm_test_top.axi_env_0.axi_agent_0.axi_monitor_0 [OUTPUT MON] AXI_REQUEST: req=0xx | AXI_RESPONSE: resp=0xc000000000000 | mon_w_valid_o = 0x0 | mon_w_data_o = 0xx | mon_w_addr_o = 0xx | mon_r_valid_o = 0x0 | mon_r_data_o = 0xx | mon_r_addr_o = 0xx | done_read = 0x0
# UVM_INFO /home/users/i77031/Work/AXI_full/uvm//axi_monitor.sv(36) @ 20000: uvm_test_top.axi_env_0.axi_agent_0.axi_monitor_0 [INPUT MON] AXI_REQUEST: req=0x0 | AXI_RESPONSE: resp=0xx | mon_w_valid_o = 0xx | mon_w_data_o = 0xx | mon_w_addr_o = 0xx | mon_r_valid_o = 0xx | mon_r_data_o = 0xx | mon_r_addr_o = 0xx | done_read = 0xx
# UVM_INFO /home/users/i77031/Work/AXI_full/uvm//axi_monitor.sv(36) @ 25000: uvm_test_top.axi_env_0.axi_agent_0.axi_monitor_0 [INPUT MON] AXI_REQUEST: req=0x800800000100000301fb00000000000000000 | AXI_RESPONSE: resp=0xx | mon_w_valid_o = 0xx | mon_w_data_o = 0xx | mon_w_addr_o = 0xx | mon_r_valid_o = 0xx | mon_r_data_o = 0xx | mon_r_addr_o = 0xx | done_read = 0xx
# UVM_INFO /home/users/i77031/Work/AXI_full/uvm//axi_monitor.sv(48) @ 25000: uvm_test_top.axi_env_0.axi_agent_0.axi_monitor_0 [OUTPUT MON] AXI_REQUEST: req=0xx | AXI_RESPONSE: resp=0xc000000000000 | mon_w_valid_o = 0x0 | mon_w_data_o = 0xx | mon_w_addr_o = 0xx | mon_r_valid_o = 0x0 | mon_r_data_o = 0xx | mon_r_addr_o = 0xx | done_read = 0x0
# UVM_INFO /home/users/i77031/Work/AXI_full/uvm//axi_monitor.sv(48) @ 30000: uvm_test_top.axi_env_0.axi_agent_0.axi_monitor_0 [OUTPUT MON] AXI_REQUEST: req=0xx | AXI_RESPONSE: resp=0xc000000000000 | mon_w_valid_o = 0x0 | mon_w_data_o = 0xx | mon_w_addr_o = 0xx | mon_r_valid_o = 0x0 | mon_r_data_o = 0xx | mon_r_addr_o = 0xx | done_read = 0x0
# UVM_INFO /home/users/i77031/Work/AXI_full/uvm//axi_monitor.sv(36) @ 30000: uvm_test_top.axi_env_0.axi_agent_0.axi_monitor_0 [INPUT MON] AXI_REQUEST: req=0x800800000000000301fb00000000000000000 | AXI_RESPONSE: resp=0xx | mon_w_valid_o = 0xx | mon_w_data_o = 0xx | mon_w_addr_o = 0xx | mon_r_valid_o = 0xx | mon_r_data_o = 0xx | mon_r_addr_o = 0xx | done_read = 0xx
# UVM_INFO /home/users/i77031/Work/AXI_full/uvm//axi_monitor.sv(36) @ 35000: uvm_test_top.axi_env_0.axi_agent_0.axi_monitor_0 [INPUT MON] AXI_REQUEST: req=0x800800000000000301fb00000000000000000 | AXI_RESPONSE: resp=0xx | mon_w_valid_o = 0xx | mon_w_data_o = 0xx | mon_w_addr_o = 0xx | mon_r_valid_o = 0xx | mon_r_data_o = 0xx | mon_r_addr_o = 0xx | done_read = 0xx
# UVM_INFO /home/users/i77031/Work/AXI_full/uvm//axi_monitor.sv(48) @ 35000: uvm_test_top.axi_env_0.axi_agent_0.axi_monitor_0 [OUTPUT MON] AXI_REQUEST: req=0xx | AXI_RESPONSE: resp=0xc000000000000 | mon_w_valid_o = 0x0 | mon_w_data_o = 0xx | mon_w_addr_o = 0xx | mon_r_valid_o = 0x0 | mon_r_data_o = 0xx | mon_r_addr_o = 0xx | done_read = 0x0
# UVM_INFO /home/users/i77031/Work/AXI_full/uvm//axi_monitor.sv(48) @ 40000: uvm_test_top.axi_env_0.axi_agent_0.axi_monitor_0 [OUTPUT MON] AXI_REQUEST: req=0xx | AXI_RESPONSE: resp=0xe000000000000 | mon_w_valid_o = 0x0 | mon_w_data_o = 0xx | mon_w_addr_o = 0xx | mon_r_valid_o = 0x0 | mon_r_data_o = 0xx | mon_r_addr_o = 0xx | done_read = 0x0
# UVM_INFO /home/users/i77031/Work/AXI_full/uvm//axi_monitor.sv(36) @ 40000: uvm_test_top.axi_env_0.axi_agent_0.axi_monitor_0 [INPUT MON] AXI_REQUEST: req=0x800800000000000301fb00000000000000000 | AXI_RESPONSE: resp=0xx | mon_w_valid_o = 0xx | mon_w_data_o = 0xx | mon_w_addr_o = 0xx | mon_r_valid_o = 0xx | mon_r_data_o = 0xx | mon_r_addr_o = 0xx | done_read = 0xx
# UVM_INFO /home/users/i77031/Work/AXI_full/uvm//axi_monitor.sv(36) @ 45000: uvm_test_top.axi_env_0.axi_agent_0.axi_monitor_0 [INPUT MON] AXI_REQUEST: req=0x800800000000000301fb00000000000000000 | AXI_RESPONSE: resp=0xx | mon_w_valid_o = 0xx | mon_w_data_o = 0xx | mon_w_addr_o = 0xx | mon_r_valid_o = 0xx | mon_r_data_o = 0xx | mon_r_addr_o = 0xx | done_read = 0xx
# UVM_INFO /home/users/i77031/Work/AXI_full/uvm//axi_monitor.sv(48) @ 45000: uvm_test_top.axi_env_0.axi_agent_0.axi_monitor_0 [OUTPUT MON] AXI_REQUEST: req=0xx | AXI_RESPONSE: resp=0xe000000000000 | mon_w_valid_o = 0x0 | mon_w_data_o = 0xx | mon_w_addr_o = 0xx | mon_r_valid_o = 0x0 | mon_r_data_o = 0xx | mon_r_addr_o = 0xx | done_read = 0x0
# UVM_INFO /home/users/i77031/Work/AXI_full/uvm//axi_driver.sv(80) @ 45000: uvm_test_top.axi_env_0.axi_agent_0.axi_driver_0 [uvm_test_top.axi_env_0.axi_agent_0.axi_driver_0] Got W Ready
# UVM_INFO /home/users/i77031/Work/AXI_full/uvm//axi_monitor.sv(48) @ 50000: uvm_test_top.axi_env_0.axi_agent_0.axi_monitor_0 [OUTPUT MON] AXI_REQUEST: req=0xx | AXI_RESPONSE: resp=0xd000000000000 | mon_w_valid_o = 0x1 | mon_w_data_o = 0xx | mon_w_addr_o = 0xx | mon_r_valid_o = 0x0 | mon_r_data_o = 0xx | mon_r_addr_o = 0xx | done_read = 0x0
# UVM_INFO /home/users/i77031/Work/AXI_full/uvm//axi_monitor.sv(36) @ 50000: uvm_test_top.axi_env_0.axi_agent_0.axi_monitor_0 [INPUT MON] AXI_REQUEST: req=0x800800000000000301f900000000000000000 | AXI_RESPONSE: resp=0xx | mon_w_valid_o = 0xx | mon_w_data_o = 0xx | mon_w_addr_o = 0xx | mon_r_valid_o = 0xx | mon_r_data_o = 0xx | mon_r_addr_o = 0xx | done_read = 0xx
# UVM_INFO /home/users/i77031/Work/AXI_full/uvm//axi_monitor.sv(36) @ 55000: uvm_test_top.axi_env_0.axi_agent_0.axi_monitor_0 [INPUT MON] AXI_REQUEST: req=0x800800000000000301f900000000000000000 | AXI_RESPONSE: resp=0xx | mon_w_valid_o = 0xx | mon_w_data_o = 0xx | mon_w_addr_o = 0xx | mon_r_valid_o = 0xx | mon_r_data_o = 0xx | mon_r_addr_o = 0xx | done_read = 0xx
# UVM_INFO /home/users/i77031/Work/AXI_full/uvm//axi_monitor.sv(48) @ 55000: uvm_test_top.axi_env_0.axi_agent_0.axi_monitor_0 [OUTPUT MON] AXI_REQUEST: req=0xx | AXI_RESPONSE: resp=0xd000000000000 | mon_w_valid_o = 0x1 | mon_w_data_o = 0xx | mon_w_addr_o = 0xx | mon_r_valid_o = 0x0 | mon_r_data_o = 0xx | mon_r_addr_o = 0xx | done_read = 0x0
# UVM_INFO /home/users/i77031/Work/AXI_full/uvm//axi_driver.sv(86) @ 55000: uvm_test_top.axi_env_0.axi_agent_0.axi_driver_0 [uvm_test_top.axi_env_0.axi_agent_0.axi_driver_0] Got B Valid
# UVM_INFO /home/users/i77031/Work/AXI_full/uvm//axi_monitor.sv(48) @ 60000: uvm_test_top.axi_env_0.axi_agent_0.axi_monitor_0 [OUTPUT MON] AXI_REQUEST: req=0xx | AXI_RESPONSE: resp=0xc000000000000 | mon_w_valid_o = 0x0 | mon_w_data_o = 0xx | mon_w_addr_o = 0xx | mon_r_valid_o = 0x0 | mon_r_data_o = 0xx | mon_r_addr_o = 0xx | done_read = 0x0
# UVM_INFO /home/users/i77031/Work/AXI_full/uvm//axi_monitor.sv(36) @ 60000: uvm_test_top.axi_env_0.axi_agent_0.axi_monitor_0 [INPUT MON] AXI_REQUEST: req=0x800800000000000301f900000000000000000 | AXI_RESPONSE: resp=0xx | mon_w_valid_o = 0xx | mon_w_data_o = 0xx | mon_w_addr_o = 0xx | mon_r_valid_o = 0xx | mon_r_data_o = 0xx | mon_r_addr_o = 0xx | done_read = 0xx
# UVM_INFO /home/users/i77031/Work/AXI_full/uvm//axi_monitor.sv(36) @ 65000: uvm_test_top.axi_env_0.axi_agent_0.axi_monitor_0 [INPUT MON] AXI_REQUEST: req=0x800800000000000301f900000000000000000 | AXI_RESPONSE: resp=0xx | mon_w_valid_o = 0xx | mon_w_data_o = 0xx | mon_w_addr_o = 0xx | mon_r_valid_o = 0xx | mon_r_data_o = 0xx | mon_r_addr_o = 0xx | done_read = 0xx
# UVM_INFO /home/users/i77031/Work/AXI_full/uvm//axi_monitor.sv(48) @ 65000: uvm_test_top.axi_env_0.axi_agent_0.axi_monitor_0 [OUTPUT MON] AXI_REQUEST: req=0xx | AXI_RESPONSE: resp=0xc000000000000 | mon_w_valid_o = 0x0 | mon_w_data_o = 0xx | mon_w_addr_o = 0xx | mon_r_valid_o = 0x0 | mon_r_data_o = 0xx | mon_r_addr_o = 0xx | done_read = 0x0
# UVM_INFO /home/users/i77031/Work/AXI_full/uvm//axi_transaction.sv(159) @ 65000: uvm_test_top.axi_env_0.axi_agent_0.axi_sequencer_0@@axi_wr_rd_seq [uvm_test_top.axi_env_0.axi_agent_0.axi_sequencer_0.axi_wr_rd_seq] Generating Single Read sequence: 
# UVM_INFO /home/users/i77031/Work/AXI_full/uvm//axi_monitor.sv(48) @ 70000: uvm_test_top.axi_env_0.axi_agent_0.axi_monitor_0 [OUTPUT MON] AXI_REQUEST: req=0xx | AXI_RESPONSE: resp=0xc000000000000 | mon_w_valid_o = 0x0 | mon_w_data_o = 0xx | mon_w_addr_o = 0xx | mon_r_valid_o = 0x0 | mon_r_data_o = 0xx | mon_r_addr_o = 0xx | done_read = 0x0
# UVM_INFO /home/users/i77031/Work/AXI_full/uvm//axi_monitor.sv(36) @ 70000: uvm_test_top.axi_env_0.axi_agent_0.axi_monitor_0 [INPUT MON] AXI_REQUEST: req=0x0 | AXI_RESPONSE: resp=0xx | mon_w_valid_o = 0xx | mon_w_data_o = 0xx | mon_w_addr_o = 0xx | mon_r_valid_o = 0xx | mon_r_data_o = 0xx | mon_r_addr_o = 0xx | done_read = 0xx
# UVM_INFO /home/users/i77031/Work/AXI_full/uvm//axi_monitor.sv(36) @ 75000: uvm_test_top.axi_env_0.axi_agent_0.axi_monitor_0 [INPUT MON] AXI_REQUEST: req=0x400400003 | AXI_RESPONSE: resp=0xx | mon_w_valid_o = 0xx | mon_w_data_o = 0xx | mon_w_addr_o = 0xx | mon_r_valid_o = 0xx | mon_r_data_o = 0xx | mon_r_addr_o = 0xx | done_read = 0xx
# UVM_INFO /home/users/i77031/Work/AXI_full/uvm//axi_monitor.sv(48) @ 75000: uvm_test_top.axi_env_0.axi_agent_0.axi_monitor_0 [OUTPUT MON] AXI_REQUEST: req=0xx | AXI_RESPONSE: resp=0xc000000000000 | mon_w_valid_o = 0x0 | mon_w_data_o = 0xx | mon_w_addr_o = 0xx | mon_r_valid_o = 0x0 | mon_r_data_o = 0xx | mon_r_addr_o = 0xx | done_read = 0x0
# UVM_INFO /home/users/i77031/Work/AXI_full/uvm//axi_monitor.sv(48) @ 80000: uvm_test_top.axi_env_0.axi_agent_0.axi_monitor_0 [OUTPUT MON] AXI_REQUEST: req=0xx | AXI_RESPONSE: resp=0xc000000000000 | mon_w_valid_o = 0x0 | mon_w_data_o = 0xx | mon_w_addr_o = 0xx | mon_r_valid_o = 0x0 | mon_r_data_o = 0xx | mon_r_addr_o = 0xx | done_read = 0x0
# UVM_INFO /home/users/i77031/Work/AXI_full/uvm//axi_monitor.sv(36) @ 80000: uvm_test_top.axi_env_0.axi_agent_0.axi_monitor_0 [INPUT MON] AXI_REQUEST: req=0x400400003 | AXI_RESPONSE: resp=0xx | mon_w_valid_o = 0xx | mon_w_data_o = 0xx | mon_w_addr_o = 0xx | mon_r_valid_o = 0xx | mon_r_data_o = 0xx | mon_r_addr_o = 0xx | done_read = 0xx
# UVM_INFO /home/users/i77031/Work/AXI_full/uvm//axi_monitor.sv(36) @ 85000: uvm_test_top.axi_env_0.axi_agent_0.axi_monitor_0 [INPUT MON] AXI_REQUEST: req=0x400400003 | AXI_RESPONSE: resp=0xx | mon_w_valid_o = 0xx | mon_w_data_o = 0xx | mon_w_addr_o = 0xx | mon_r_valid_o = 0xx | mon_r_data_o = 0xx | mon_r_addr_o = 0xx | done_read = 0xx
# UVM_INFO /home/users/i77031/Work/AXI_full/uvm//axi_monitor.sv(48) @ 85000: uvm_test_top.axi_env_0.axi_agent_0.axi_monitor_0 [OUTPUT MON] AXI_REQUEST: req=0xx | AXI_RESPONSE: resp=0xc000000000000 | mon_w_valid_o = 0x0 | mon_w_data_o = 0xx | mon_w_addr_o = 0xx | mon_r_valid_o = 0x0 | mon_r_data_o = 0xx | mon_r_addr_o = 0xx | done_read = 0x0
# UVM_INFO /home/users/i77031/Work/AXI_full/uvm//axi_monitor.sv(48) @ 90000: uvm_test_top.axi_env_0.axi_agent_0.axi_monitor_0 [OUTPUT MON] AXI_REQUEST: req=0xx | AXI_RESPONSE: resp=0xc010000003012 | mon_w_valid_o = 0x0 | mon_w_data_o = 0xx | mon_w_addr_o = 0xx | mon_r_valid_o = 0x0 | mon_r_data_o = 0xx | mon_r_addr_o = 0xx | done_read = 0x1
# UVM_INFO /home/users/i77031/Work/AXI_full/uvm//axi_monitor.sv(36) @ 90000: uvm_test_top.axi_env_0.axi_agent_0.axi_monitor_0 [INPUT MON] AXI_REQUEST: req=0x400400003 | AXI_RESPONSE: resp=0xx | mon_w_valid_o = 0xx | mon_w_data_o = 0xx | mon_w_addr_o = 0xx | mon_r_valid_o = 0xx | mon_r_data_o = 0xx | mon_r_addr_o = 0xx | done_read = 0xx
# UVM_INFO /home/users/i77031/Work/AXI_full/uvm//axi_monitor.sv(36) @ 95000: uvm_test_top.axi_env_0.axi_agent_0.axi_monitor_0 [INPUT MON] AXI_REQUEST: req=0x400400003 | AXI_RESPONSE: resp=0xx | mon_w_valid_o = 0xx | mon_w_data_o = 0xx | mon_w_addr_o = 0xx | mon_r_valid_o = 0xx | mon_r_data_o = 0xx | mon_r_addr_o = 0xx | done_read = 0xx
# UVM_INFO /home/users/i77031/Work/AXI_full/uvm//axi_monitor.sv(48) @ 95000: uvm_test_top.axi_env_0.axi_agent_0.axi_monitor_0 [OUTPUT MON] AXI_REQUEST: req=0xx | AXI_RESPONSE: resp=0xc010000003012 | mon_w_valid_o = 0x0 | mon_w_data_o = 0xx | mon_w_addr_o = 0xx | mon_r_valid_o = 0x0 | mon_r_data_o = 0xx | mon_r_addr_o = 0xx | done_read = 0x1
# UVM_INFO /home/users/i77031/Work/AXI_full/uvm//axi_scoreboard.sv(81) @ 95000: uvm_test_top.axi_env_0.axi_scoreboard_0 [SCOREBOARD] DONE_READ
# UVM_INFO /home/users/i77031/Work/AXI_full/uvm//axi_scoreboard.sv(89) @ 95000: uvm_test_top.axi_env_0.axi_scoreboard_0 [SCOREBOARD] DATA READ BACK SUCCESSFULLY ACT=0x301 EXP=0x301
# UVM_INFO /home/users/i77031/Work/AXI_full/uvm//axi_monitor.sv(48) @ 100000: uvm_test_top.axi_env_0.axi_agent_0.axi_monitor_0 [OUTPUT MON] AXI_REQUEST: req=0xx | AXI_RESPONSE: resp=0xc010000003012 | mon_w_valid_o = 0x0 | mon_w_data_o = 0xx | mon_w_addr_o = 0xx | mon_r_valid_o = 0x1 | mon_r_data_o = 0xx | mon_r_addr_o = 0xx | done_read = 0x1
# UVM_INFO /home/users/i77031/Work/AXI_full/uvm//axi_monitor.sv(36) @ 100000: uvm_test_top.axi_env_0.axi_agent_0.axi_monitor_0 [INPUT MON] AXI_REQUEST: req=0x400400003 | AXI_RESPONSE: resp=0xx | mon_w_valid_o = 0xx | mon_w_data_o = 0xx | mon_w_addr_o = 0xx | mon_r_valid_o = 0xx | mon_r_data_o = 0xx | mon_r_addr_o = 0xx | done_read = 0xx
# UVM_INFO /home/users/i77031/Work/AXI_full/uvm//axi_scoreboard.sv(81) @ 100000: uvm_test_top.axi_env_0.axi_scoreboard_0 [SCOREBOARD] DONE_READ
# UVM_INFO /home/users/i77031/Work/AXI_full/uvm//axi_scoreboard.sv(89) @ 100000: uvm_test_top.axi_env_0.axi_scoreboard_0 [SCOREBOARD] DATA READ BACK SUCCESSFULLY ACT=0x301 EXP=0x301
# UVM_INFO /home/users/i77031/Work/AXI_full/uvm//axi_monitor.sv(36) @ 105000: uvm_test_top.axi_env_0.axi_agent_0.axi_monitor_0 [INPUT MON] AXI_REQUEST: req=0x400400003 | AXI_RESPONSE: resp=0xx | mon_w_valid_o = 0xx | mon_w_data_o = 0xx | mon_w_addr_o = 0xx | mon_r_valid_o = 0xx | mon_r_data_o = 0xx | mon_r_addr_o = 0xx | done_read = 0xx
# UVM_INFO /home/users/i77031/Work/AXI_full/uvm//axi_monitor.sv(48) @ 105000: uvm_test_top.axi_env_0.axi_agent_0.axi_monitor_0 [OUTPUT MON] AXI_REQUEST: req=0xx | AXI_RESPONSE: resp=0xc010000003012 | mon_w_valid_o = 0x0 | mon_w_data_o = 0xx | mon_w_addr_o = 0xx | mon_r_valid_o = 0x1 | mon_r_data_o = 0xx | mon_r_addr_o = 0xx | done_read = 0x1
# UVM_INFO /home/users/i77031/Work/AXI_full/uvm//axi_driver.sv(113) @ 105000: uvm_test_top.axi_env_0.axi_agent_0.axi_driver_0 [uvm_test_top.axi_env_0.axi_agent_0.axi_driver_0] Got R Valid
# UVM_INFO /home/users/i77031/Work/AXI_full/uvm//axi_driver.sv(114) @ 105000: uvm_test_top.axi_env_0.axi_agent_0.axi_driver_0 [uvm_test_top.axi_env_0.axi_agent_0.axi_driver_0] Read data = 00000301
# UVM_INFO /home/users/i77031/Work/AXI_full/uvm//axi_scoreboard.sv(81) @ 105000: uvm_test_top.axi_env_0.axi_scoreboard_0 [SCOREBOARD] DONE_READ
# UVM_INFO /home/users/i77031/Work/AXI_full/uvm//axi_scoreboard.sv(89) @ 105000: uvm_test_top.axi_env_0.axi_scoreboard_0 [SCOREBOARD] DATA READ BACK SUCCESSFULLY ACT=0x301 EXP=0x301
# UVM_INFO verilog_src/uvm-1.1d/src/base/uvm_objection.svh(1243) @ 105000: reporter [TEST_DONE] All end-of-test objections have been dropped. Calling stop tasks
# UVM_INFO verilog_src/uvm-1.1d/src/base/uvm_objection.svh(1267) @ 105000: reporter [TEST_DONE] 'run' phase is ready to proceed to the 'extract' phase
# 
# --- UVM Report Summary ---
# 
# ** Report counts by severity
# UVM_INFO :   75
# UVM_WARNING :    0
# UVM_ERROR :    0
# UVM_FATAL :    0
# ** Report counts by id
# [INPUT MON]    21
# [OUTPUT MON]    21
# [PHASESEQ]    13
# [Questa UVM]     3
# [RNTST]     1
# [SCOREBOARD]     6
# [TEST_DONE]     2
# [UVMTOP]     1
# [uvm_test_top.axi_env_0.axi_agent_0.axi_driver_0]     5
# [uvm_test_top.axi_env_0.axi_agent_0.axi_sequencer_0.axi_wr_rd_seq]     2
# ** Note: $finish    : /pkg/modeltech-2024.3/linux/../verilog_src/uvm-1.1d/src/base/uvm_root.svh(430)
#    Time: 105 ns  Iteration: 61  Instance: /axi_full_uvm_tb_top
# End time: 13:44:22 on Jan 03,2026, Elapsed time: 0:00:09
# Errors: 0, Warnings: 1
