# UVM_INFO @ 0: reporter [UVMTOP] UVM testbench topology:
# ------------------------------------------------------------------
# Name                       Type                        Size  Value
# ------------------------------------------------------------------
# uvm_test_top               axi_lite_write_read_test    -     @471 
#   axi_env_0                axi_env                     -     @478 
#     axi_agent_0            axi_agent                   -     @489 
#       axi_driver_0         axi_driver                  -     @511 
#         rsp_port           uvm_analysis_port           -     @526 
#         seq_item_port      uvm_seq_item_pull_port      -     @518 
#       axi_monitor_0        axi_monitor                 -     @504 
#         dut_in_tx_port     uvm_analysis_port           -     @644 
#         dut_out_tx_port    uvm_analysis_port           -     @652 
#       axi_sequencer_0      uvm_sequencer               -     @534 
#         rsp_export         uvm_analysis_export         -     @541 
#         seq_item_export    uvm_seq_item_pull_imp       -     @635 
#         arbitration_queue  array                       0     -    
#         lock_queue         array                       0     -    
#         num_last_reqs      integral                    32    'd1  
#         num_last_rsps      integral                    32    'd1  
#     axi_scoreboard_0       axi_scoreboard              -     @496 
#       in_fifo              uvm_tlm_analysis_fifo #(T)  -     @666 
#         analysis_export    uvm_analysis_imp            -     @705 
#         get_ap             uvm_analysis_port           -     @697 
#         get_peek_export    uvm_get_peek_imp            -     @681 
#         put_ap             uvm_analysis_port           -     @689 
#         put_export         uvm_put_imp                 -     @673 
#       in_imp               uvm_analysis_imp_in         -     @760 
#       out_fifo             uvm_tlm_analysis_fifo #(T)  -     @713 
#         analysis_export    uvm_analysis_imp            -     @752 
#         get_ap             uvm_analysis_port           -     @744 
#         get_peek_export    uvm_get_peek_imp            -     @728 
#         put_ap             uvm_analysis_port           -     @736 
#         put_export         uvm_put_imp                 -     @720 
#       out_imp              uvm_analysis_imp_out        -     @768 
# ------------------------------------------------------------------
# 
# UVM_INFO verilog_src/questa_uvm_pkg-1.2/src/questa_uvm_pkg.sv(339) @ 0: reporter [Questa UVM] End Of Elaboration
# UVM_INFO verilog_src/uvm-1.1d/src/seq/uvm_sequencer_base.svh(1384) @ 0: uvm_test_top.axi_env_0.axi_agent_0.axi_sequencer_0 [PHASESEQ] No default phase sequence for phase 'run'
# UVM_INFO /home/users/i77031/Work/AXI_adv/uvm//axi_monitor.sv(36) @ 0: uvm_test_top.axi_env_0.axi_agent_0.axi_monitor_0 [INPUT MON] AXI_REQUEST: req=0xx | AXI_RESPONSE: resp=0xx | WR_ACTIVE_O=0xx RD_ACTIVE_O=0xx
# UVM_INFO /home/users/i77031/Work/AXI_adv/uvm//axi_monitor.sv(48) @ 0: uvm_test_top.axi_env_0.axi_agent_0.axi_monitor_0 [OUTPUT MON] AXI_REQUEST: req=0xx | AXI_RESPONSE: resp=0x0Xxxxxxxxxx | WR_ACTIVE_O=0x0 RD_ACTIVE_O=0x0
# UVM_INFO verilog_src/uvm-1.1d/src/seq/uvm_sequencer_base.svh(1384) @ 0: uvm_test_top.axi_env_0.axi_agent_0.axi_sequencer_0 [PHASESEQ] No default phase sequence for phase 'pre_reset'
# UVM_INFO /home/users/i77031/Work/AXI_adv/uvm//axi_monitor.sv(48) @ 0: uvm_test_top.axi_env_0.axi_agent_0.axi_monitor_0 [OUTPUT MON] AXI_REQUEST: req=0xx | AXI_RESPONSE: resp=0x0Xxxxxxxxxx | WR_ACTIVE_O=0x0 RD_ACTIVE_O=0x0
# UVM_INFO /home/users/i77031/Work/AXI_adv/uvm//axi_monitor.sv(36) @ 0: uvm_test_top.axi_env_0.axi_agent_0.axi_monitor_0 [INPUT MON] AXI_REQUEST: req=0x0 | AXI_RESPONSE: resp=0xx | WR_ACTIVE_O=0xx RD_ACTIVE_O=0xx
# UVM_INFO verilog_src/uvm-1.1d/src/seq/uvm_sequencer_base.svh(1384) @ 0: uvm_test_top.axi_env_0.axi_agent_0.axi_sequencer_0 [PHASESEQ] No default phase sequence for phase 'reset'
# UVM_INFO verilog_src/uvm-1.1d/src/seq/uvm_sequencer_base.svh(1384) @ 0: uvm_test_top.axi_env_0.axi_agent_0.axi_sequencer_0 [PHASESEQ] No default phase sequence for phase 'post_reset'
# UVM_INFO verilog_src/uvm-1.1d/src/seq/uvm_sequencer_base.svh(1384) @ 0: uvm_test_top.axi_env_0.axi_agent_0.axi_sequencer_0 [PHASESEQ] No default phase sequence for phase 'pre_configure'
# UVM_INFO verilog_src/uvm-1.1d/src/seq/uvm_sequencer_base.svh(1384) @ 0: uvm_test_top.axi_env_0.axi_agent_0.axi_sequencer_0 [PHASESEQ] No default phase sequence for phase 'configure'
# UVM_INFO verilog_src/uvm-1.1d/src/seq/uvm_sequencer_base.svh(1384) @ 0: uvm_test_top.axi_env_0.axi_agent_0.axi_sequencer_0 [PHASESEQ] No default phase sequence for phase 'post_configure'
# UVM_INFO verilog_src/uvm-1.1d/src/seq/uvm_sequencer_base.svh(1384) @ 0: uvm_test_top.axi_env_0.axi_agent_0.axi_sequencer_0 [PHASESEQ] No default phase sequence for phase 'pre_main'
# UVM_INFO verilog_src/uvm-1.1d/src/seq/uvm_sequencer_base.svh(1384) @ 0: uvm_test_top.axi_env_0.axi_agent_0.axi_sequencer_0 [PHASESEQ] No default phase sequence for phase 'main'
# UVM_INFO verilog_src/uvm-1.1d/src/seq/uvm_sequencer_base.svh(1384) @ 0: uvm_test_top.axi_env_0.axi_agent_0.axi_sequencer_0 [PHASESEQ] No default phase sequence for phase 'post_main'
# UVM_INFO verilog_src/uvm-1.1d/src/seq/uvm_sequencer_base.svh(1384) @ 0: uvm_test_top.axi_env_0.axi_agent_0.axi_sequencer_0 [PHASESEQ] No default phase sequence for phase 'pre_shutdown'
# UVM_INFO verilog_src/uvm-1.1d/src/seq/uvm_sequencer_base.svh(1384) @ 0: uvm_test_top.axi_env_0.axi_agent_0.axi_sequencer_0 [PHASESEQ] No default phase sequence for phase 'shutdown'
# UVM_INFO verilog_src/uvm-1.1d/src/seq/uvm_sequencer_base.svh(1384) @ 0: uvm_test_top.axi_env_0.axi_agent_0.axi_sequencer_0 [PHASESEQ] No default phase sequence for phase 'post_shutdown'
# UVM_INFO /home/users/i77031/Work/AXI_adv/uvm//axi_monitor.sv(36) @ 15000: uvm_test_top.axi_env_0.axi_agent_0.axi_monitor_0 [INPUT MON] AXI_REQUEST: req=0x0 | AXI_RESPONSE: resp=0xx | WR_ACTIVE_O=0xx RD_ACTIVE_O=0xx
# UVM_INFO /home/users/i77031/Work/AXI_adv/uvm//axi_monitor.sv(48) @ 15000: uvm_test_top.axi_env_0.axi_agent_0.axi_monitor_0 [OUTPUT MON] AXI_REQUEST: req=0xx | AXI_RESPONSE: resp=0x800000000 | WR_ACTIVE_O=0x0 RD_ACTIVE_O=0x0
# UVM_INFO /home/users/i77031/Work/AXI_adv/uvm//axi_transaction.sv(120) @ 15000: uvm_test_top.axi_env_0.axi_agent_0.axi_sequencer_0@@axi_wr_rd_seq [uvm_test_top.axi_env_0.axi_agent_0.axi_sequencer_0.axi_wr_rd_seq] Generating Write sequence
# UVM_INFO /home/users/i77031/Work/AXI_adv/uvm//axi_monitor.sv(48) @ 20000: uvm_test_top.axi_env_0.axi_agent_0.axi_monitor_0 [OUTPUT MON] AXI_REQUEST: req=0xx | AXI_RESPONSE: resp=0x800000000 | WR_ACTIVE_O=0x0 RD_ACTIVE_O=0x0
# UVM_INFO /home/users/i77031/Work/AXI_adv/uvm//axi_monitor.sv(36) @ 20000: uvm_test_top.axi_env_0.axi_agent_0.axi_monitor_0 [INPUT MON] AXI_REQUEST: req=0x0 | AXI_RESPONSE: resp=0xx | WR_ACTIVE_O=0xx RD_ACTIVE_O=0xx
# reg writing = 01
# reg writing = 01
# reg writing = 00
# reg writing = 00
# UVM_INFO /home/users/i77031/Work/AXI_adv/uvm//axi_monitor.sv(36) @ 25000: uvm_test_top.axi_env_0.axi_agent_0.axi_monitor_0 [INPUT MON] AXI_REQUEST: req=0x880000080fe000000000 | AXI_RESPONSE: resp=0xx | WR_ACTIVE_O=0xx RD_ACTIVE_O=0xx
# UVM_INFO /home/users/i77031/Work/AXI_adv/uvm//axi_monitor.sv(48) @ 25000: uvm_test_top.axi_env_0.axi_agent_0.axi_monitor_0 [OUTPUT MON] AXI_REQUEST: req=0xx | AXI_RESPONSE: resp=0x18800000000 | WR_ACTIVE_O=0xf RD_ACTIVE_O=0x0
# UVM_INFO /home/users/i77031/Work/AXI_adv/uvm//axi_driver.sv(69) @ 25000: uvm_test_top.axi_env_0.axi_agent_0.axi_driver_0 [uvm_test_top.axi_env_0.axi_agent_0.axi_driver_0] Got AW Ready
# reg writing = 01
# reg writing = 01
# reg writing = 00
# reg writing = 00
# UVM_INFO /home/users/i77031/Work/AXI_adv/uvm//axi_monitor.sv(48) @ 30000: uvm_test_top.axi_env_0.axi_agent_0.axi_monitor_0 [OUTPUT MON] AXI_REQUEST: req=0xx | AXI_RESPONSE: resp=0x19800000000 | WR_ACTIVE_O=0xf RD_ACTIVE_O=0x0
# UVM_INFO /home/users/i77031/Work/AXI_adv/uvm//axi_monitor.sv(36) @ 30000: uvm_test_top.axi_env_0.axi_agent_0.axi_monitor_0 [INPUT MON] AXI_REQUEST: req=0x880000080fe000000000 | AXI_RESPONSE: resp=0xx | WR_ACTIVE_O=0xx RD_ACTIVE_O=0xx
# UVM_INFO /home/users/i77031/Work/AXI_adv/uvm//axi_monitor.sv(36) @ 35000: uvm_test_top.axi_env_0.axi_agent_0.axi_monitor_0 [INPUT MON] AXI_REQUEST: req=0x880000080fe000000000 | AXI_RESPONSE: resp=0xx | WR_ACTIVE_O=0xx RD_ACTIVE_O=0xx
# UVM_INFO /home/users/i77031/Work/AXI_adv/uvm//axi_monitor.sv(48) @ 35000: uvm_test_top.axi_env_0.axi_agent_0.axi_monitor_0 [OUTPUT MON] AXI_REQUEST: req=0xx | AXI_RESPONSE: resp=0x19800000000 | WR_ACTIVE_O=0xf RD_ACTIVE_O=0x0
# UVM_INFO /home/users/i77031/Work/AXI_adv/uvm//axi_driver.sv(77) @ 35000: uvm_test_top.axi_env_0.axi_agent_0.axi_driver_0 [uvm_test_top.axi_env_0.axi_agent_0.axi_driver_0] Got W Ready
# UVM_INFO /home/users/i77031/Work/AXI_adv/uvm//axi_driver.sv(83) @ 35000: uvm_test_top.axi_env_0.axi_agent_0.axi_driver_0 [uvm_test_top.axi_env_0.axi_agent_0.axi_driver_0] Got B Valid
# UVM_INFO /home/users/i77031/Work/AXI_adv/uvm//axi_monitor.sv(48) @ 40000: uvm_test_top.axi_env_0.axi_agent_0.axi_monitor_0 [OUTPUT MON] AXI_REQUEST: req=0xx | AXI_RESPONSE: resp=0x1800000000 | WR_ACTIVE_O=0x0 RD_ACTIVE_O=0x0
# UVM_INFO /home/users/i77031/Work/AXI_adv/uvm//axi_monitor.sv(36) @ 40000: uvm_test_top.axi_env_0.axi_agent_0.axi_monitor_0 [INPUT MON] AXI_REQUEST: req=0x800000080fa000000000 | AXI_RESPONSE: resp=0xx | WR_ACTIVE_O=0xx RD_ACTIVE_O=0xx
# UVM_INFO /home/users/i77031/Work/AXI_adv/uvm//axi_monitor.sv(36) @ 45000: uvm_test_top.axi_env_0.axi_agent_0.axi_monitor_0 [INPUT MON] AXI_REQUEST: req=0x800000080fa000000000 | AXI_RESPONSE: resp=0xx | WR_ACTIVE_O=0xx RD_ACTIVE_O=0xx
# UVM_INFO /home/users/i77031/Work/AXI_adv/uvm//axi_monitor.sv(48) @ 45000: uvm_test_top.axi_env_0.axi_agent_0.axi_monitor_0 [OUTPUT MON] AXI_REQUEST: req=0xx | AXI_RESPONSE: resp=0x1800000000 | WR_ACTIVE_O=0x0 RD_ACTIVE_O=0x0
# UVM_INFO /home/users/i77031/Work/AXI_adv/uvm//axi_transaction.sv(131) @ 45000: uvm_test_top.axi_env_0.axi_agent_0.axi_sequencer_0@@axi_wr_rd_seq [uvm_test_top.axi_env_0.axi_agent_0.axi_sequencer_0.axi_wr_rd_seq] Generating Read sequence: 
# UVM_INFO /home/users/i77031/Work/AXI_adv/uvm//axi_monitor.sv(48) @ 50000: uvm_test_top.axi_env_0.axi_agent_0.axi_monitor_0 [OUTPUT MON] AXI_REQUEST: req=0xx | AXI_RESPONSE: resp=0x800000000 | WR_ACTIVE_O=0x0 RD_ACTIVE_O=0x0
# UVM_INFO /home/users/i77031/Work/AXI_adv/uvm//axi_monitor.sv(36) @ 50000: uvm_test_top.axi_env_0.axi_agent_0.axi_monitor_0 [INPUT MON] AXI_REQUEST: req=0x0 | AXI_RESPONSE: resp=0xx | WR_ACTIVE_O=0xx RD_ACTIVE_O=0xx
# UVM_INFO /home/users/i77031/Work/AXI_adv/uvm//axi_monitor.sv(36) @ 55000: uvm_test_top.axi_env_0.axi_agent_0.axi_monitor_0 [INPUT MON] AXI_REQUEST: req=0x23 | AXI_RESPONSE: resp=0xx | WR_ACTIVE_O=0xx RD_ACTIVE_O=0xx
# UVM_INFO /home/users/i77031/Work/AXI_adv/uvm//axi_monitor.sv(48) @ 55000: uvm_test_top.axi_env_0.axi_agent_0.axi_monitor_0 [OUTPUT MON] AXI_REQUEST: req=0xx | AXI_RESPONSE: resp=0x800000000 | WR_ACTIVE_O=0x0 RD_ACTIVE_O=0xf
# UVM_INFO /home/users/i77031/Work/AXI_adv/uvm//axi_monitor.sv(48) @ 60000: uvm_test_top.axi_env_0.axi_agent_0.axi_monitor_0 [OUTPUT MON] AXI_REQUEST: req=0xx | AXI_RESPONSE: resp=0x800000809 | WR_ACTIVE_O=0x0 RD_ACTIVE_O=0xf
# UVM_INFO /home/users/i77031/Work/AXI_adv/uvm//axi_monitor.sv(36) @ 60000: uvm_test_top.axi_env_0.axi_agent_0.axi_monitor_0 [INPUT MON] AXI_REQUEST: req=0x23 | AXI_RESPONSE: resp=0xx | WR_ACTIVE_O=0xx RD_ACTIVE_O=0xx
# UVM_INFO /home/users/i77031/Work/AXI_adv/uvm//axi_monitor.sv(36) @ 65000: uvm_test_top.axi_env_0.axi_agent_0.axi_monitor_0 [INPUT MON] AXI_REQUEST: req=0x23 | AXI_RESPONSE: resp=0xx | WR_ACTIVE_O=0xx RD_ACTIVE_O=0xx
# UVM_INFO /home/users/i77031/Work/AXI_adv/uvm//axi_monitor.sv(48) @ 65000: uvm_test_top.axi_env_0.axi_agent_0.axi_monitor_0 [OUTPUT MON] AXI_REQUEST: req=0xx | AXI_RESPONSE: resp=0x800000809 | WR_ACTIVE_O=0x0 RD_ACTIVE_O=0xf
# UVM_INFO /home/users/i77031/Work/AXI_adv/uvm//axi_driver.sv(99) @ 65000: uvm_test_top.axi_env_0.axi_agent_0.axi_driver_0 [uvm_test_top.axi_env_0.axi_agent_0.axi_driver_0] Read data = 00000101
# UVM_INFO /home/users/i77031/Work/AXI_adv/uvm//axi_scoreboard.sv(80) @ 65000: uvm_test_top.axi_env_0.axi_scoreboard_0 [SCOREBOARD] DONE_READ
# UVM_INFO /home/users/i77031/Work/AXI_adv/uvm//axi_scoreboard.sv(88) @ 65000: uvm_test_top.axi_env_0.axi_scoreboard_0 [SCOREBOARD] DATA READ BACK SUCCESSFULLY ACT=0x101 EXP=0x101
# UVM_INFO verilog_src/uvm-1.1d/src/base/uvm_objection.svh(1243) @ 65000: reporter [TEST_DONE] All end-of-test objections have been dropped. Calling stop tasks
# UVM_INFO verilog_src/uvm-1.1d/src/base/uvm_objection.svh(1267) @ 65000: reporter [TEST_DONE] 'run' phase is ready to proceed to the 'extract' phase
# 
# --- UVM Report Summary ---
# 
# ** Report counts by severity
# UVM_INFO :   54
# UVM_WARNING :    0
# UVM_ERROR :    0
# UVM_FATAL :    0
# ** Report counts by id
# [INPUT MON]    13
# [OUTPUT MON]    13
# [PHASESEQ]    13
# [Questa UVM]     3
# [RNTST]     1
# [SCOREBOARD]     2
# [TEST_DONE]     2
# [UVMTOP]     1
# [uvm_test_top.axi_env_0.axi_agent_0.axi_driver_0]     4
# [uvm_test_top.axi_env_0.axi_agent_0.axi_sequencer_0.axi_wr_rd_seq]     2
